
T0B5C 000:055 SEGGER J-Link V6.10i Log File (0000ms, 0017ms total)
T0B5C 000:055 DLL Compiled: Oct 25 2016 19:31:51 (0000ms, 0017ms total)
T0B5C 000:055 Logging started @ 2021-05-13 19:38 (0001ms, 0018ms total)
T0B5C 000:056 JLINK_SetWarnOutHandler(...) (0000ms, 0018ms total)
T0B5C 000:056 JLINK_OpenEx(...)
Firmware: J-Link V9 compiled Oct 25 2018 11:46:07
Hardware: V9.60
S/N: 69665820
Feature(s): RDI, GDB, FlashDL, FlashBP, JFlashWEBSRV Webserver running on local port 19080 (0013ms, 0031ms total)
T0B5C 000:056   returns O.K. (0013ms, 0031ms total)
T0B5C 000:069 JLINK_SetErrorOutHandler(...) (0000ms, 0031ms total)
T0B5C 000:069 JLINK_ExecCommand("ProjectFile = "C:\JayShen\20 - Work\10 - Project\01 - Conception of LAN\SW\MDK_ARM\JLinkSettings.ini"", ...).   returns 0x00 (0046ms, 0077ms total)
T0B5C 000:115 JLINK_ExecCommand("Device = STM32F103ZE", ...). Device "STM32F103ZE" selected.  returns 0x00 (0001ms, 0078ms total)
T0B5C 000:116 JLINK_ExecCommand("DisableConnectionTimeout", ...).   returns 0x01 (0000ms, 0078ms total)
T0B5C 000:116 JLINK_GetHardwareVersion()  returns 0x17700 (0000ms, 0078ms total)
T0B5C 000:116 JLINK_GetDLLVersion()  returns 61009 (0000ms, 0078ms total)
T0B5C 000:116 JLINK_GetFirmwareString(...) (0000ms, 0078ms total)
T0B5C 000:116 JLINK_GetDLLVersion()  returns 61009 (0000ms, 0078ms total)
T0B5C 000:116 JLINK_GetCompileDateTime() (0000ms, 0078ms total)
T0B5C 000:116 JLINK_GetFirmwareString(...) (0000ms, 0078ms total)
T0B5C 000:116 JLINK_GetHardwareVersion()  returns 0x17700 (0000ms, 0078ms total)
T0B5C 000:116 JLINK_TIF_Select(JLINKARM_TIF_JTAG)  returns 0x00 (0001ms, 0079ms total)
T0B5C 000:117 JLINK_SetSpeed(50000) (0000ms, 0079ms total)
T0B5C 000:117 JLINK_GetIdData(...) >0x2F8 JTAG>TotalIRLen = 9, IRPrint = 0x0011 >0x30 JTAG> >0x410 JTAG> >0x40 JTAG> >0x40 JTAG> >0x40 JTAG> >0x30 JTAG> >0x40 JTAG> >0x40 JTAG> >0x40 JTAG> >0x40 JTAG> >0x40 JTAG> >0x40 JTAG> >0x40 JTAG> >0x40 JTAG> >0x40 JTAG> >0x40 JTAG> >0x40 JTAG> >0x40 JTAG> >0x40 JTAG> >0x40 JTAG> >0x40 JTAG> >0x40 JTAG> >0x40 JTAG> >0x40 JTAG> >0x40 JTAG> >0x40 JTAG> >0x40 JTAG> >0x40 JTAG> >0x40 JTAG> >0x2F8 JTAG>TotalIRLen = 9, IRPrint = 0x0011 >0x30 JTAG> >0x410 JTAG>
 >0x70 JTAG> >0x50 JTAG> >0x40 JTAG> >0x50 JTAG>AP-IDR: 0x14770011, Type: AHB-APStart searching for Cortex-M ROM table with ROMTable[0] @ 0xE00FF000.ROMTable[1]: Cortex-M ROM table found. >0x80 JTAG> >0x40 JTAG> >0x30 JTAG> >0x40 JTAG> >0x40 JTAG> >0x30 JTAG> >0x40 JTAG> >0x50 JTAG>Found Cortex-M3 r1p1, Little endian. -- CPU_ReadMem(4 bytes @ 0xE000EDF0) -- CPU_WriteMem(4 bytes @ 0xE000EDF0) -- CPU_ReadMem(4 bytes @ 0xE0002000)FPUnit: 6 code (BP) slots and 2 literal slots
 -- CPU_ReadMem(4 bytes @ 0xE000EDFC) -- CPU_WriteMem(4 bytes @ 0xE000EDFC) -- CPU_ReadMem(4 bytes @ 0xE0001000) -- CPU_WriteMem(4 bytes @ 0xE0001000) -- CPU_ReadMem(4 bytes @ 0xE000ED88) -- CPU_WriteMem(4 bytes @ 0xE000ED88) -- CPU_ReadMem(4 bytes @ 0xE000ED88) -- CPU_WriteMem(4 bytes @ 0xE000ED88)CoreSight components:ROMTbl 0 @ E00FF000 -- CPU_ReadMem(16 bytes @ 0xE00FF000) -- CPU_ReadMem(16 bytes @ 0xE000EFF0) -- CPU_ReadMem(16 bytes @ 0xE000EFE0)
ROMTbl 0 [0]: FFF0F000, CID: B105E00D, PID: 001BB000 SCS -- CPU_ReadMem(16 bytes @ 0xE0001FF0) -- CPU_ReadMem(16 bytes @ 0xE0001FE0)ROMTbl 0 [1]: FFF02000, CID: B105E00D, PID: 001BB002 DWT -- CPU_ReadMem(16 bytes @ 0xE0002FF0) -- CPU_ReadMem(16 bytes @ 0xE0002FE0)ROMTbl 0 [2]: FFF03000, CID: B105E00D, PID: 000BB003 FPB -- CPU_ReadMem(16 bytes @ 0xE0000FF0) -- CPU_ReadMem(16 bytes @ 0xE0000FE0)ROMTbl 0 [3]: FFF01000, CID: B105E00D, PID: 001BB001 ITM -- CPU_ReadMem(16 bytes @ 0xE00FF010)
 -- CPU_ReadMem(16 bytes @ 0xE0040FF0) -- CPU_ReadMem(16 bytes @ 0xE0040FE0)ROMTbl 0 [4]: FFF41000, CID: B105900D, PID: 001BB923 TPIU-Lite -- CPU_ReadMem(16 bytes @ 0xE0041FF0) -- CPU_ReadMem(16 bytes @ 0xE0041FE0)ROMTbl 0 [5]: FFF42000, CID: B105900D, PID: 101BB924 ETM-M3 ScanLen=9 NumDevices=2 aId[0]=0x3BA00477 aIrRead[0]=0 aScanLen[0]=0 aScanRead[0]=0 (0015ms, 0094ms total)
T0B5C 000:132 JLINK_JTAG_GetDeviceID(DeviceIndex = 0)  returns 0x3BA00477 (0000ms, 0094ms total)
T0B5C 000:132 JLINK_JTAG_GetDeviceInfo(DeviceIndex = 0)  returns 0x00 (0000ms, 0094ms total)
T0B5C 000:132 JLINK_JTAG_GetDeviceID(DeviceIndex = 1)  returns 0x6414041 (0000ms, 0094ms total)
T0B5C 000:132 JLINK_JTAG_GetDeviceInfo(DeviceIndex = 1)  returns 0x00 (0000ms, 0094ms total)
T0B5C 000:132 JLINK_GetDLLVersion()  returns 61009 (0000ms, 0094ms total)
T0B5C 000:132 JLINK_CORE_GetFound()  returns 0x30000FF (0000ms, 0094ms total)
T0B5C 000:132 JLINK_GetDebugInfo(0x100) -- Value=0xE00FF003  returns 0x00 (0000ms, 0094ms total)
T0B5C 000:132 JLINK_GetDebugInfo(0x100) -- Value=0xE00FF003  returns 0x00 (0000ms, 0094ms total)
T0B5C 000:132 JLINK_GetDebugInfo(0x101) -- Value=0xE0041000  returns 0x00 (0000ms, 0094ms total)
T0B5C 000:132 JLINK_GetDebugInfo(0x102) -- Value=0x00000000  returns 0x00 (0000ms, 0094ms total)
T0B5C 000:132 JLINK_GetDebugInfo(0x103) -- Value=0xE0040000  returns 0x00 (0000ms, 0094ms total)
T0B5C 000:132 JLINK_GetDebugInfo(0x104) -- Value=0xE0000000  returns 0x00 (0000ms, 0094ms total)
T0B5C 000:132 JLINK_GetDebugInfo(0x105) -- Value=0xE0001000  returns 0x00 (0000ms, 0094ms total)
T0B5C 000:132 JLINK_GetDebugInfo(0x106) -- Value=0xE0002000  returns 0x00 (0000ms, 0094ms total)
T0B5C 000:132 JLINK_GetDebugInfo(0x107) -- Value=0xE000E000  returns 0x00 (0000ms, 0094ms total)
T0B5C 000:132 JLINK_GetDebugInfo(0x10C) -- Value=0xE000EDF0  returns 0x00 (0000ms, 0094ms total)
T0B5C 000:132 JLINK_ReadMemU32(0xE000ED00, 0x0001 Items, ...) -- CPU is running -- CPU_ReadMem(4 bytes @ 0xE000ED00) - Data: 31 C2 1F 41  returns 0x01 (0001ms, 0095ms total)
T0B5C 000:133 JLINK_SetResetType(JLINKARM_RESET_TYPE_NORMAL)  returns JLINKARM_RESET_TYPE_NORMAL (0000ms, 0095ms total)
T0B5C 000:133 JLINK_Reset() -- CPU is running -- CPU_WriteMem(4 bytes @ 0xE000EDF0) -- CPU is running -- CPU_WriteMem(4 bytes @ 0xE000EDFC) -- CPU is running -- CPU_WriteMem(4 bytes @ 0xE000ED0C) -- CPU is running -- CPU_ReadMem(4 bytes @ 0xE000EDF0) -- CPU is running -- CPU_ReadMem(4 bytes @ 0xE000EDF0) -- CPU is running -- CPU_WriteMem(4 bytes @ 0xE000EDF0) -- CPU is running -- CPU_WriteMem(4 bytes @ 0xE000EDFC) -- CPU is running -- CPU_ReadMem(4 bytes @ 0xE000EDF0) >0x80 JTAG> >0x40 JTAG> >0x30 JTAG>
 >0x40 JTAG> >0x50 JTAG> >0x40 JTAG> -- CPU_WriteMem(4 bytes @ 0xE000EDFC) -- CPU_WriteMem(4 bytes @ 0xE0001028) -- CPU_WriteMem(4 bytes @ 0xE0001038) -- CPU_WriteMem(4 bytes @ 0xE0001048) -- CPU_WriteMem(4 bytes @ 0xE0001058) -- CPU_WriteMem(4 bytes @ 0xE0002000) -- CPU_ReadMem(4 bytes @ 0xE000EDFC) -- CPU_ReadMem(4 bytes @ 0xE0001000) (0020ms, 0115ms total)
T0B5C 000:153 JLINK_ReadReg(R15 (PC))  returns 0x080001CC (0000ms, 0115ms total)
T0B5C 000:153 JLINK_ReadReg(XPSR)  returns 0x01000000 (0000ms, 0115ms total)
T0B5C 000:153 JLINK_Halt()  returns 0x00 (0000ms, 0115ms total)
T0B5C 000:153 JLINK_IsHalted()  returns TRUE (0000ms, 0115ms total)
T0B5C 000:153 JLINK_ReadMemU32(0xE000EDF0, 0x0001 Items, ...) -- CPU_ReadMem(4 bytes @ 0xE000EDF0) - Data: 03 00 03 00  returns 0x01 (0000ms, 0115ms total)
T0B5C 000:153 JLINK_WriteU32(0xE000EDF0, 0xA05F0003) -- CPU_WriteMem(4 bytes @ 0xE000EDF0)  returns 0x00 (0000ms, 0115ms total)
T0B5C 000:153 JLINK_WriteU32(0xE000EDFC, 0x01000000) -- CPU_WriteMem(4 bytes @ 0xE000EDFC)  returns 0x00 (0000ms, 0115ms total)
T0B5C 000:153 JLINK_GetHWStatus(...)  returns 0x00 (0001ms, 0116ms total)
T0B5C 000:154 JLINK_GetNumBPUnits(Type = 0xFFFFFF00)  returns 0x06 (0000ms, 0116ms total)
T0B5C 000:154 JLINK_GetNumBPUnits(Type = 0xF0)  returns 0x2000 (0000ms, 0116ms total)
T0B5C 000:154 JLINK_GetNumWPUnits()  returns 0x04 (0000ms, 0116ms total)
T0B5C 000:154 JLINK_GetSpeed()  returns 0x3A98 (0000ms, 0116ms total)
T0B5C 000:154 JLINK_ReadMemU32(0xE000E004, 0x0001 Items, ...) -- CPU_ReadMem(4 bytes @ 0xE000E004) - Data: 01 00 00 00  returns 0x01 (0000ms, 0116ms total)
T0B5C 000:154 JLINK_ReadMemU32(0xE000E004, 0x0001 Items, ...) -- CPU_ReadMem(4 bytes @ 0xE000E004) - Data: 01 00 00 00  returns 0x01 (0001ms, 0117ms total)
T0B5C 000:155 JLINK_WriteMem(0xE0001000, 0x001C Bytes, ...) - Data: 01 00 00 00 00 00 00 00 00 00 00 00 00 00 00 00 ... -- CPU_WriteMem(28 bytes @ 0xE0001000)  returns 0x1C (0000ms, 0117ms total)
T0B5C 000:155 JLINK_ReadMem (0xE0001000, 0x001C Bytes, ...) -- CPU_ReadMem(28 bytes @ 0xE0001000) - Data: 01 00 00 40 00 00 00 00 00 00 00 00 00 00 00 00 ...  returns 0x00 (0000ms, 0117ms total)
T0B5C 000:155 JLINK_ReadReg(R15 (PC))  returns 0x080001CC (0000ms, 0117ms total)
T0B5C 000:155 JLINK_ReadReg(XPSR)  returns 0x01000000 (0000ms, 0117ms total)
T0B5C 000:230 JLINK_SetResetType(JLINKARM_RESET_TYPE_NORMAL)  returns JLINKARM_RESET_TYPE_NORMAL (0000ms, 0117ms total)
T0B5C 000:231 JLINK_Reset() -- CPU_WriteMem(4 bytes @ 0xE000EDF0) -- CPU_WriteMem(4 bytes @ 0xE000EDFC) -- CPU_WriteMem(4 bytes @ 0xE000ED0C) -- CPU_ReadMem(4 bytes @ 0xE000EDF0) -- CPU_ReadMem(4 bytes @ 0xE000EDF0) -- CPU_WriteMem(4 bytes @ 0xE000EDF0) -- CPU_WriteMem(4 bytes @ 0xE000EDFC) -- CPU is running -- CPU_ReadMem(4 bytes @ 0xE000EDF0) >0x80 JTAG> >0x40 JTAG> >0x30 JTAG> >0x40 JTAG> >0x50 JTAG> >0x40 JTAG> -- CPU_WriteMem(4 bytes @ 0xE000EDFC) -- CPU_WriteMem(4 bytes @ 0xE0001028)
 -- CPU_WriteMem(4 bytes @ 0xE0001038) -- CPU_WriteMem(4 bytes @ 0xE0001048) -- CPU_WriteMem(4 bytes @ 0xE0001058) -- CPU_WriteMem(4 bytes @ 0xE0002000) -- CPU_ReadMem(4 bytes @ 0xE000EDFC) -- CPU_ReadMem(4 bytes @ 0xE0001000) (0021ms, 0139ms total)
T0B5C 000:252 JLINK_ReadReg(R15 (PC))  returns 0x080001CC (0000ms, 0139ms total)
T0B5C 000:252 JLINK_ReadReg(XPSR)  returns 0x01000000 (0000ms, 0139ms total)
T0B5C 000:252 JLINK_ReadMem (0x08000130, 0x003C Bytes, ...) -- CPU_ReadMem(128 bytes @ 0x08000100) -- Updating C cache (128 bytes @ 0x08000100) -- Read from C cache (60 bytes @ 0x08000130) - Data: 00 F0 02 F8 00 F0 3A F8 0A A0 90 E8 00 0C 82 44 ...  returns 0x00 (0002ms, 0141ms total)
T0B5C 000:254 JLINK_ReadMem (0x0800016C, 0x003C Bytes, ...) -- CPU_ReadMem(64 bytes @ 0x08000180) -- Updating C cache (64 bytes @ 0x08000180) -- Read from C cache (60 bytes @ 0x0800016C) - Data: 10 3A 24 BF 78 C8 78 C1 FA D8 52 07 24 BF 30 C8 ...  returns 0x00 (0000ms, 0141ms total)
T0B5C 000:254 JLINK_ReadMem (0x080001A8, 0x003C Bytes, ...) -- CPU_ReadMem(64 bytes @ 0x080001C0) -- Updating C cache (64 bytes @ 0x080001C0) -- Read from C cache (60 bytes @ 0x080001A8) - Data: 10 B5 10 BD 00 F0 31 F8 11 46 FF F7 F7 FF 00 F0 ...  returns 0x00 (0001ms, 0142ms total)
T2D14 001:756 JLINK_Step() -- Read from C cache (2 bytes @ 0x080001CC) -- CPU_ReadMem(4 bytes @ 0xE000ED18) -- CPU_WriteMem(4 bytes @ 0xE000ED18) -- CPU_ReadMem(4 bytes @ 0xE000ED18) -- CPU_WriteMem(4 bytes @ 0xE000ED18) -- Read from C cache (4 bytes @ 0x080001F4) -- Simulated  returns 0x00 (0002ms, 0144ms total)
T2D14 001:758 JLINK_ReadReg(R15 (PC))  returns 0x080001CE (0000ms, 0144ms total)
T2D14 001:758 JLINK_ReadReg(XPSR)  returns 0x01000000 (0000ms, 0144ms total)
T2D14 001:758 JLINK_SetBPEx(Addr = 0x08000AEE, Type = 0xFFFFFFF2)  returns 0x00000001 (0000ms, 0144ms total)
T2D14 001:758 JLINK_SetBPEx(Addr = 0x080001CC, Type = 0xFFFFFFF2)  returns 0x00000002 (0000ms, 0144ms total)
T2D14 001:758 JLINK_SetBPEx(Addr = 0x08000A1C, Type = 0xFFFFFFF2)  returns 0x00000003 (0000ms, 0144ms total)
T2D14 001:758 JLINK_SetBPEx(Addr = 0x08000A08, Type = 0xFFFFFFF2)  returns 0x00000004 (0000ms, 0144ms total)
T2D14 001:758 JLINK_SetBPEx(Addr = 0x0800079A, Type = 0xFFFFFFF2)  returns 0x00000005 (0000ms, 0144ms total)
T2D14 001:758 JLINK_SetBPEx(Addr = 0x08000B34, Type = 0xFFFFFFF2)  returns 0x00000006 (0000ms, 0144ms total)
T2D14 001:758 JLINK_Go() -- CPU_ReadMem(4 bytes @ 0xE0001000) -- CPU_WriteMem(4 bytes @ 0xE0002008) -- CPU_WriteMem(4 bytes @ 0xE000200C) -- CPU_WriteMem(4 bytes @ 0xE0002010) -- CPU_WriteMem(4 bytes @ 0xE0002014) -- CPU_WriteMem(4 bytes @ 0xE0002018) -- CPU_WriteMem(4 bytes @ 0xE000201C) -- CPU_WriteMem(4 bytes @ 0xE0001004) (0002ms, 0146ms total)
T2D14 001:860 JLINK_IsHalted()  returns TRUE (0002ms, 0148ms total)
T2D14 001:862 JLINK_Halt()  returns 0x00 (0000ms, 0146ms total)
T2D14 001:862 JLINK_IsHalted()  returns TRUE (0000ms, 0146ms total)
T2D14 001:862 JLINK_IsHalted()  returns TRUE (0000ms, 0146ms total)
T2D14 001:862 JLINK_IsHalted()  returns TRUE (0000ms, 0146ms total)
T2D14 001:862 JLINK_ReadReg(R15 (PC))  returns 0x0800079A (0000ms, 0146ms total)
T2D14 001:862 JLINK_ReadReg(XPSR)  returns 0x01000000 (0000ms, 0146ms total)
T2D14 001:862 JLINK_ClrBPEx(BPHandle = 0x00000001)  returns 0x00 (0000ms, 0146ms total)
T2D14 001:862 JLINK_ClrBPEx(BPHandle = 0x00000002)  returns 0x00 (0000ms, 0146ms total)
T2D14 001:862 JLINK_ClrBPEx(BPHandle = 0x00000003)  returns 0x00 (0000ms, 0146ms total)
T2D14 001:862 JLINK_ClrBPEx(BPHandle = 0x00000004)  returns 0x00 (0000ms, 0146ms total)
T2D14 001:862 JLINK_ClrBPEx(BPHandle = 0x00000005)  returns 0x00 (0000ms, 0146ms total)
T2D14 001:862 JLINK_ClrBPEx(BPHandle = 0x00000006)  returns 0x00 (0000ms, 0146ms total)
T2D14 001:862 JLINK_ReadMemU32(0xE000ED30, 0x0001 Items, ...) -- CPU_ReadMem(4 bytes @ 0xE000ED30) - Data: 02 00 00 00  returns 0x01 (0000ms, 0146ms total)
T2D14 001:862 JLINK_ReadMemU32(0xE0001028, 0x0001 Items, ...) -- CPU_ReadMem(4 bytes @ 0xE0001028) - Data: 00 00 00 00  returns 0x01 (0001ms, 0147ms total)
T2D14 001:863 JLINK_ReadMemU32(0xE0001038, 0x0001 Items, ...) -- CPU_ReadMem(4 bytes @ 0xE0001038) - Data: 00 02 00 00  returns 0x01 (0000ms, 0147ms total)
T2D14 001:863 JLINK_ReadMemU32(0xE0001048, 0x0001 Items, ...) -- CPU_ReadMem(4 bytes @ 0xE0001048) - Data: 00 00 00 00  returns 0x01 (0000ms, 0147ms total)
T2D14 001:863 JLINK_ReadMemU32(0xE0001058, 0x0001 Items, ...) -- CPU_ReadMem(4 bytes @ 0xE0001058) - Data: 00 00 00 00  returns 0x01 (0000ms, 0147ms total)
T2D14 001:863 JLINK_ReadReg(R0)  returns 0x08000799 (0000ms, 0147ms total)
T2D14 001:863 JLINK_ReadReg(R1)  returns 0x00001000 (0000ms, 0147ms total)
T2D14 001:863 JLINK_ReadReg(R2)  returns 0x40003800 (0000ms, 0147ms total)
T2D14 001:863 JLINK_ReadReg(R3)  returns 0x00000001 (0000ms, 0147ms total)
T2D14 001:863 JLINK_ReadReg(R4)  returns 0x00000000 (0000ms, 0147ms total)
T2D14 001:863 JLINK_ReadReg(R5)  returns 0x20000658 (0000ms, 0147ms total)
T2D14 001:863 JLINK_ReadReg(R6)  returns 0x00000000 (0000ms, 0147ms total)
T2D14 001:863 JLINK_ReadReg(R7)  returns 0x00000000 (0000ms, 0147ms total)
T2D14 001:863 JLINK_ReadReg(R8)  returns 0x00000000 (0000ms, 0147ms total)
T2D14 001:863 JLINK_ReadReg(R9)  returns 0x20000160 (0000ms, 0147ms total)
T2D14 001:863 JLINK_ReadReg(R10)  returns 0x08000D38 (0000ms, 0147ms total)
T2D14 001:863 JLINK_ReadReg(R11)  returns 0x00000000 (0000ms, 0147ms total)
T2D14 001:863 JLINK_ReadReg(R12)  returns 0x00000018 (0000ms, 0147ms total)
T2D14 001:863 JLINK_ReadReg(R13 (SP))  returns 0x20000CB0 (0000ms, 0147ms total)
T2D14 001:863 JLINK_ReadReg(R14)  returns 0x080001D1 (0000ms, 0147ms total)
T2D14 001:863 JLINK_ReadReg(R15 (PC))  returns 0x0800079A (0000ms, 0147ms total)
T2D14 001:863 JLINK_ReadReg(XPSR)  returns 0x01000000 (0000ms, 0147ms total)
T2D14 001:863 JLINK_ReadReg(MSP)  returns 0x20000CB0 (0000ms, 0147ms total)
T2D14 001:863 JLINK_ReadReg(PSP)  returns 0x20001000 (0000ms, 0147ms total)
T2D14 001:863 JLINK_ReadReg(CFBP)  returns 0x00000000 (0000ms, 0147ms total)
T0B5C 001:863 JLINK_ReadMem (0x20000CB4, 0x0004 Bytes, ...) -- CPU_ReadMem(64 bytes @ 0x20000C80) -- Updating C cache (64 bytes @ 0x20000C80) -- Read from C cache (4 bytes @ 0x20000CB4) - Data: D1 01 00 08  returns 0x00 (0001ms, 0148ms total)
T0B5C 001:864 JLINK_ReadMem (0x20000CB0, 0x0004 Bytes, ...) -- Read from C cache (4 bytes @ 0x20000CB0) - Data: 00 00 00 00  returns 0x00 (0000ms, 0148ms total)
T0B5C 001:867 JLINK_ReadMemU32(0xE0001004, 0x0001 Items, ...) -- CPU_ReadMem(4 bytes @ 0xE0001004) - Data: 09 00 00 00  returns 0x01 (0001ms, 0149ms total)
T0B5C 001:874 JLINK_ReadMem (0x08000798, 0x003C Bytes, ...) -- CPU_ReadMem(128 bytes @ 0x08000780) -- Updating C cache (128 bytes @ 0x08000780) -- Read from C cache (60 bytes @ 0x08000798) - Data: 10 B5 13 48 00 68 40 F0 01 00 11 49 08 60 08 46 ...  returns 0x00 (0001ms, 0150ms total)
T2D14 004:227 JLINK_SetBPEx(Addr = 0x08000AEE, Type = 0xFFFFFFF2)  returns 0x00000007 (0000ms, 0150ms total)
T2D14 004:227 JLINK_SetBPEx(Addr = 0x080001CC, Type = 0xFFFFFFF2)  returns 0x00000008 (0000ms, 0150ms total)
T2D14 004:227 JLINK_SetBPEx(Addr = 0x08000A1C, Type = 0xFFFFFFF2)  returns 0x00000009 (0000ms, 0150ms total)
T2D14 004:227 JLINK_SetBPEx(Addr = 0x08000A08, Type = 0xFFFFFFF2)  returns 0x0000000A (0000ms, 0150ms total)
T2D14 004:227 JLINK_SetBPEx(Addr = 0x08000B34, Type = 0xFFFFFFF2)  returns 0x0000000B (0000ms, 0150ms total)
T2D14 004:227 JLINK_Go() -- CPU_ReadMem(4 bytes @ 0xE0001000) -- CPU_WriteMem(4 bytes @ 0xE0002018) -- CPU_WriteMem(4 bytes @ 0xE000201C) (0002ms, 0152ms total)
T2D14 004:330 JLINK_IsHalted()  returns TRUE (0001ms, 0153ms total)
T2D14 004:331 JLINK_Halt()  returns 0x00 (0000ms, 0152ms total)
T2D14 004:331 JLINK_IsHalted()  returns TRUE (0000ms, 0152ms total)
T2D14 004:331 JLINK_IsHalted()  returns TRUE (0000ms, 0152ms total)
T2D14 004:331 JLINK_IsHalted()  returns TRUE (0000ms, 0152ms total)
T2D14 004:331 JLINK_ReadReg(R15 (PC))  returns 0x08000A08 (0000ms, 0152ms total)
T2D14 004:331 JLINK_ReadReg(XPSR)  returns 0x21000000 (0000ms, 0152ms total)
T2D14 004:331 JLINK_ClrBPEx(BPHandle = 0x00000007)  returns 0x00 (0000ms, 0152ms total)
T2D14 004:331 JLINK_ClrBPEx(BPHandle = 0x00000008)  returns 0x00 (0000ms, 0152ms total)
T2D14 004:331 JLINK_ClrBPEx(BPHandle = 0x00000009)  returns 0x00 (0000ms, 0152ms total)
T2D14 004:331 JLINK_ClrBPEx(BPHandle = 0x0000000A)  returns 0x00 (0000ms, 0152ms total)
T2D14 004:331 JLINK_ClrBPEx(BPHandle = 0x0000000B)  returns 0x00 (0000ms, 0152ms total)
T2D14 004:331 JLINK_ReadMemU32(0xE000ED30, 0x0001 Items, ...) -- CPU_ReadMem(4 bytes @ 0xE000ED30) - Data: 02 00 00 00  returns 0x01 (0000ms, 0152ms total)
T2D14 004:331 JLINK_ReadMemU32(0xE0001028, 0x0001 Items, ...) -- CPU_ReadMem(4 bytes @ 0xE0001028) - Data: 00 00 00 00  returns 0x01 (0001ms, 0153ms total)
T2D14 004:332 JLINK_ReadMemU32(0xE0001038, 0x0001 Items, ...) -- CPU_ReadMem(4 bytes @ 0xE0001038) - Data: 00 02 00 00  returns 0x01 (0000ms, 0153ms total)
T2D14 004:332 JLINK_ReadMemU32(0xE0001048, 0x0001 Items, ...) -- CPU_ReadMem(4 bytes @ 0xE0001048) - Data: 00 00 00 00  returns 0x01 (0000ms, 0153ms total)
T2D14 004:332 JLINK_ReadMemU32(0xE0001058, 0x0001 Items, ...) -- CPU_ReadMem(4 bytes @ 0xE0001058) - Data: 00 00 00 00  returns 0x01 (0002ms, 0155ms total)
T2D14 004:334 JLINK_ReadReg(R0)  returns 0x200006B8 (0000ms, 0155ms total)
T2D14 004:334 JLINK_ReadReg(R1)  returns 0x200008B8 (0000ms, 0155ms total)
T2D14 004:334 JLINK_ReadReg(R2)  returns 0x200008B8 (0000ms, 0155ms total)
T2D14 004:334 JLINK_ReadReg(R3)  returns 0x200008B8 (0000ms, 0155ms total)
T2D14 004:334 JLINK_ReadReg(R4)  returns 0x00000000 (0000ms, 0155ms total)
T2D14 004:334 JLINK_ReadReg(R5)  returns 0x20000658 (0000ms, 0155ms total)
T2D14 004:334 JLINK_ReadReg(R6)  returns 0x00000000 (0000ms, 0155ms total)
T2D14 004:334 JLINK_ReadReg(R7)  returns 0x00000000 (0000ms, 0155ms total)
T2D14 004:334 JLINK_ReadReg(R8)  returns 0x00000000 (0000ms, 0155ms total)
T2D14 004:334 JLINK_ReadReg(R9)  returns 0x20000160 (0000ms, 0155ms total)
T2D14 004:334 JLINK_ReadReg(R10)  returns 0x08000D38 (0000ms, 0155ms total)
T2D14 004:334 JLINK_ReadReg(R11)  returns 0x00000000 (0000ms, 0155ms total)
T2D14 004:334 JLINK_ReadReg(R12)  returns 0x20000698 (0000ms, 0155ms total)
T2D14 004:334 JLINK_ReadReg(R13 (SP))  returns 0x20000CB8 (0000ms, 0155ms total)
T2D14 004:334 JLINK_ReadReg(R14)  returns 0x080001BB (0000ms, 0155ms total)
T2D14 004:334 JLINK_ReadReg(R15 (PC))  returns 0x08000A08 (0000ms, 0155ms total)
T2D14 004:334 JLINK_ReadReg(XPSR)  returns 0x21000000 (0000ms, 0155ms total)
T2D14 004:334 JLINK_ReadReg(MSP)  returns 0x20000CB8 (0000ms, 0155ms total)
T2D14 004:334 JLINK_ReadReg(PSP)  returns 0x20001000 (0000ms, 0155ms total)
T2D14 004:334 JLINK_ReadReg(CFBP)  returns 0x00000000 (0000ms, 0155ms total)
T0B5C 004:339 JLINK_ReadMemU32(0xE0001004, 0x0001 Items, ...) -- CPU_ReadMem(4 bytes @ 0xE0001004) - Data: FC 16 00 00  returns 0x01 (0001ms, 0156ms total)
T0B5C 004:346 JLINK_ReadMem (0x08000A06, 0x0002 Bytes, ...) -- CPU_ReadMem(64 bytes @ 0x08000A00) -- Updating C cache (64 bytes @ 0x08000A00) -- Read from C cache (2 bytes @ 0x08000A06) - Data: 10 BD  returns 0x00 (0001ms, 0157ms total)
T0B5C 004:347 JLINK_ReadMem (0x08000A08, 0x003C Bytes, ...) -- CPU_ReadMem(64 bytes @ 0x08000A40) -- Updating C cache (64 bytes @ 0x08000A40) -- Read from C cache (60 bytes @ 0x08000A08) - Data: FF F7 74 FF FF F7 0A FF FF F7 84 FD 00 F0 3C F8 ...  returns 0x00 (0000ms, 0157ms total)
T2D14 009:765 JLINK_SetBPEx(Addr = 0x08000AEE, Type = 0xFFFFFFF2)  returns 0x0000000C (0000ms, 0157ms total)
T2D14 009:766 JLINK_SetBPEx(Addr = 0x080001CC, Type = 0xFFFFFFF2)  returns 0x0000000D (0000ms, 0158ms total)
T2D14 009:766 JLINK_SetBPEx(Addr = 0x08000A1C, Type = 0xFFFFFFF2)  returns 0x0000000E (0000ms, 0158ms total)
T2D14 009:766 JLINK_SetBPEx(Addr = 0x08000B34, Type = 0xFFFFFFF2)  returns 0x0000000F (0000ms, 0158ms total)
T2D14 009:766 JLINK_Go() -- CPU_ReadMem(4 bytes @ 0xE0001000) -- CPU_WriteMem(4 bytes @ 0xE0002014) -- CPU_WriteMem(4 bytes @ 0xE0002018) (0001ms, 0159ms total)
T2D14 009:868 JLINK_IsHalted()  returns TRUE (0001ms, 0160ms total)
T2D14 009:869 JLINK_Halt()  returns 0x00 (0000ms, 0159ms total)
T2D14 009:869 JLINK_IsHalted()  returns TRUE (0000ms, 0159ms total)
T2D14 009:869 JLINK_IsHalted()  returns TRUE (0000ms, 0159ms total)
T2D14 009:869 JLINK_IsHalted()  returns TRUE (0000ms, 0159ms total)
T2D14 009:869 JLINK_ReadReg(R15 (PC))  returns 0x08000AEE (0000ms, 0159ms total)
T2D14 009:869 JLINK_ReadReg(XPSR)  returns 0x41000000 (0000ms, 0159ms total)
T2D14 009:869 JLINK_ClrBPEx(BPHandle = 0x0000000C)  returns 0x00 (0000ms, 0159ms total)
T2D14 009:869 JLINK_ClrBPEx(BPHandle = 0x0000000D)  returns 0x00 (0000ms, 0159ms total)
T2D14 009:869 JLINK_ClrBPEx(BPHandle = 0x0000000E)  returns 0x00 (0000ms, 0159ms total)
T2D14 009:869 JLINK_ClrBPEx(BPHandle = 0x0000000F)  returns 0x00 (0000ms, 0159ms total)
T2D14 009:869 JLINK_ReadMemU32(0xE000ED30, 0x0001 Items, ...) -- CPU_ReadMem(4 bytes @ 0xE000ED30) - Data: 02 00 00 00  returns 0x01 (0001ms, 0160ms total)
T2D14 009:870 JLINK_ReadMemU32(0xE0001028, 0x0001 Items, ...) -- CPU_ReadMem(4 bytes @ 0xE0001028) - Data: 00 00 00 00  returns 0x01 (0001ms, 0161ms total)
T2D14 009:871 JLINK_ReadMemU32(0xE0001038, 0x0001 Items, ...) -- CPU_ReadMem(4 bytes @ 0xE0001038) - Data: 00 02 00 00  returns 0x01 (0000ms, 0161ms total)
T2D14 009:871 JLINK_ReadMemU32(0xE0001048, 0x0001 Items, ...) -- CPU_ReadMem(4 bytes @ 0xE0001048) - Data: 00 00 00 00  returns 0x01 (0001ms, 0162ms total)
T2D14 009:872 JLINK_ReadMemU32(0xE0001058, 0x0001 Items, ...) -- CPU_ReadMem(4 bytes @ 0xE0001058) - Data: 00 00 00 00  returns 0x01 (0000ms, 0162ms total)
T2D14 009:872 JLINK_ReadReg(R0)  returns 0x20000040 (0000ms, 0162ms total)
T2D14 009:872 JLINK_ReadReg(R1)  returns 0x00000000 (0000ms, 0162ms total)
T2D14 009:872 JLINK_ReadReg(R2)  returns 0x11DC0800 (0000ms, 0162ms total)
T2D14 009:872 JLINK_ReadReg(R3)  returns 0x00000002 (0000ms, 0162ms total)
T2D14 009:872 JLINK_ReadReg(R4)  returns 0x00000000 (0000ms, 0162ms total)
T2D14 009:872 JLINK_ReadReg(R5)  returns 0x20000658 (0000ms, 0162ms total)
T2D14 009:872 JLINK_ReadReg(R6)  returns 0x00000000 (0000ms, 0162ms total)
T2D14 009:872 JLINK_ReadReg(R7)  returns 0x00000000 (0000ms, 0162ms total)
T2D14 009:872 JLINK_ReadReg(R8)  returns 0x00000000 (0000ms, 0162ms total)
T2D14 009:872 JLINK_ReadReg(R9)  returns 0x20000160 (0000ms, 0162ms total)
T2D14 009:872 JLINK_ReadReg(R10)  returns 0x08000D38 (0000ms, 0162ms total)
T2D14 009:872 JLINK_ReadReg(R11)  returns 0x00000000 (0000ms, 0162ms total)
T2D14 009:872 JLINK_ReadReg(R12)  returns 0x00000018 (0000ms, 0162ms total)
T2D14 009:872 JLINK_ReadReg(R13 (SP))  returns 0x20000CB0 (0000ms, 0162ms total)
T2D14 009:872 JLINK_ReadReg(R14)  returns 0x08000A1D (0000ms, 0162ms total)
T2D14 009:872 JLINK_ReadReg(R15 (PC))  returns 0x08000AEE (0000ms, 0162ms total)
T2D14 009:872 JLINK_ReadReg(XPSR)  returns 0x41000000 (0000ms, 0162ms total)
T2D14 009:872 JLINK_ReadReg(MSP)  returns 0x20000CB0 (0000ms, 0162ms total)
T2D14 009:872 JLINK_ReadReg(PSP)  returns 0x20001000 (0000ms, 0162ms total)
T2D14 009:872 JLINK_ReadReg(CFBP)  returns 0x00000000 (0000ms, 0162ms total)
T0B5C 009:872 JLINK_ReadMem (0x20000CB4, 0x0004 Bytes, ...) -- CPU_ReadMem(64 bytes @ 0x20000C80) -- Updating C cache (64 bytes @ 0x20000C80) -- Read from C cache (4 bytes @ 0x20000CB4) - Data: 1D 0A 00 08  returns 0x00 (0001ms, 0163ms total)
T0B5C 009:873 JLINK_ReadMem (0x20000CB0, 0x0004 Bytes, ...) -- Read from C cache (4 bytes @ 0x20000CB0) - Data: 00 00 00 00  returns 0x00 (0000ms, 0163ms total)
T0B5C 009:876 JLINK_ReadMemU32(0xE0001004, 0x0001 Items, ...) -- CPU_ReadMem(4 bytes @ 0xE0001004) - Data: 97 13 04 00  returns 0x01 (0000ms, 0163ms total)
T0B5C 009:884 JLINK_ReadMem (0x08000AEC, 0x003C Bytes, ...) -- CPU_ReadMem(128 bytes @ 0x08000AC0) -- Updating C cache (128 bytes @ 0x08000AC0) -- Read from C cache (60 bytes @ 0x08000AEC) - Data: 10 B5 12 48 FF F7 B3 FF 10 48 0C 30 FF F7 C1 FF ...  returns 0x00 (0001ms, 0164ms total)
T2D14 013:331 JLINK_Step() -- Read from C cache (2 bytes @ 0x08000AEE) -- Read from C cache (4 bytes @ 0x08000B38) -- Simulated  returns 0x00 (0001ms, 0165ms total)
T2D14 013:332 JLINK_ReadReg(R15 (PC))  returns 0x08000AF0 (0000ms, 0165ms total)
T2D14 013:332 JLINK_ReadReg(XPSR)  returns 0x41000000 (0000ms, 0165ms total)
T2D14 013:332 JLINK_Step() -- Read from C cache (2 bytes @ 0x08000AF0) -- Read from C cache (2 bytes @ 0x08000AF2) -- Simulated  returns 0x00 (0000ms, 0165ms total)
T2D14 013:332 JLINK_ReadReg(R15 (PC))  returns 0x08000A5A (0000ms, 0165ms total)
T2D14 013:332 JLINK_ReadReg(XPSR)  returns 0x41000000 (0000ms, 0165ms total)
T2D14 013:332 JLINK_ReadReg(R0)  returns 0x20000044 (0000ms, 0165ms total)
T2D14 013:332 JLINK_ReadReg(R1)  returns 0x00000000 (0000ms, 0165ms total)
T2D14 013:332 JLINK_ReadReg(R2)  returns 0x11DC0800 (0000ms, 0165ms total)
T2D14 013:332 JLINK_ReadReg(R3)  returns 0x00000002 (0000ms, 0165ms total)
T2D14 013:332 JLINK_ReadReg(R4)  returns 0x00000000 (0000ms, 0165ms total)
T2D14 013:332 JLINK_ReadReg(R5)  returns 0x20000658 (0000ms, 0165ms total)
T2D14 013:332 JLINK_ReadReg(R6)  returns 0x00000000 (0000ms, 0165ms total)
T2D14 013:332 JLINK_ReadReg(R7)  returns 0x00000000 (0000ms, 0165ms total)
T2D14 013:332 JLINK_ReadReg(R8)  returns 0x00000000 (0000ms, 0165ms total)
T2D14 013:332 JLINK_ReadReg(R9)  returns 0x20000160 (0000ms, 0165ms total)
T2D14 013:332 JLINK_ReadReg(R10)  returns 0x08000D38 (0000ms, 0165ms total)
T2D14 013:332 JLINK_ReadReg(R11)  returns 0x00000000 (0000ms, 0165ms total)
T2D14 013:332 JLINK_ReadReg(R12)  returns 0x00000018 (0000ms, 0165ms total)
T2D14 013:332 JLINK_ReadReg(R13 (SP))  returns 0x20000CB0 (0000ms, 0165ms total)
T2D14 013:332 JLINK_ReadReg(R14)  returns 0x08000AF5 (0000ms, 0165ms total)
T2D14 013:332 JLINK_ReadReg(R15 (PC))  returns 0x08000A5A (0000ms, 0165ms total)
T2D14 013:332 JLINK_ReadReg(XPSR)  returns 0x41000000 (0000ms, 0165ms total)
T2D14 013:332 JLINK_ReadReg(MSP)  returns 0x20000CB0 (0000ms, 0165ms total)
T2D14 013:332 JLINK_ReadReg(PSP)  returns 0x20001000 (0000ms, 0165ms total)
T2D14 013:332 JLINK_ReadReg(CFBP)  returns 0x00000000 (0000ms, 0165ms total)
T0B5C 013:335 JLINK_ReadMem (0x20000CB4, 0x0004 Bytes, ...) -- Read from C cache (4 bytes @ 0x20000CB4) - Data: 1D 0A 00 08  returns 0x00 (0000ms, 0165ms total)
T0B5C 013:335 JLINK_ReadMem (0x20000CB0, 0x0004 Bytes, ...) -- Read from C cache (4 bytes @ 0x20000CB0) - Data: 00 00 00 00  returns 0x00 (0000ms, 0165ms total)
T0B5C 013:335 JLINK_ReadMem (0x20000044, 0x0020 Bytes, ...) -- CPU_ReadMem(64 bytes @ 0x20000040) -- Updating C cache (64 bytes @ 0x20000040) -- Read from C cache (32 bytes @ 0x20000044) - Data: 00 08 DC 11 11 11 01 00 C0 A8 01 6E FF FF FF 00 ...  returns 0x00 (0001ms, 0166ms total)
T0B5C 013:340 JLINK_ReadMemU32(0xE0001004, 0x0001 Items, ...) - Data: 9A 13 04 00  returns 0x01 (0000ms, 0166ms total)
T0B5C 013:348 JLINK_ReadMem (0x08000A58, 0x003C Bytes, ...) -- CPU_ReadMem(128 bytes @ 0x08000A40) -- Updating C cache (128 bytes @ 0x08000A40) -- Read from C cache (60 bytes @ 0x08000A58) - Data: 10 BD 10 B5 04 46 06 22 21 46 4F F4 10 60 00 F0 ...  returns 0x00 (0001ms, 0167ms total)
T2D14 015:324 JLINK_Step() -- Read from C cache (2 bytes @ 0x08000A5A) -- CPU_WriteMem(8 bytes @ 0x20000CA8) -- Simulated  returns 0x00 (0000ms, 0167ms total)
T2D14 015:324 JLINK_ReadReg(R15 (PC))  returns 0x08000A5C (0000ms, 0167ms total)
T2D14 015:324 JLINK_ReadReg(XPSR)  returns 0x41000000 (0000ms, 0167ms total)
T2D14 015:324 JLINK_Step() -- Read from C cache (2 bytes @ 0x08000A5C) -- Simulated  returns 0x00 (0000ms, 0167ms total)
T2D14 015:324 JLINK_ReadReg(R15 (PC))  returns 0x08000A5E (0000ms, 0167ms total)
T2D14 015:324 JLINK_ReadReg(XPSR)  returns 0x41000000 (0000ms, 0167ms total)
T2D14 015:324 JLINK_ReadReg(R0)  returns 0x20000044 (0000ms, 0167ms total)
T2D14 015:324 JLINK_ReadReg(R1)  returns 0x00000000 (0000ms, 0167ms total)
T2D14 015:324 JLINK_ReadReg(R2)  returns 0x11DC0800 (0000ms, 0167ms total)
T2D14 015:324 JLINK_ReadReg(R3)  returns 0x00000002 (0000ms, 0167ms total)
T2D14 015:324 JLINK_ReadReg(R4)  returns 0x20000044 (0000ms, 0167ms total)
T2D14 015:324 JLINK_ReadReg(R5)  returns 0x20000658 (0000ms, 0167ms total)
T2D14 015:324 JLINK_ReadReg(R6)  returns 0x00000000 (0000ms, 0167ms total)
T2D14 015:324 JLINK_ReadReg(R7)  returns 0x00000000 (0000ms, 0167ms total)
T2D14 015:324 JLINK_ReadReg(R8)  returns 0x00000000 (0000ms, 0167ms total)
T2D14 015:324 JLINK_ReadReg(R9)  returns 0x20000160 (0000ms, 0167ms total)
T2D14 015:324 JLINK_ReadReg(R10)  returns 0x08000D38 (0000ms, 0167ms total)
T2D14 015:324 JLINK_ReadReg(R11)  returns 0x00000000 (0000ms, 0167ms total)
T2D14 015:324 JLINK_ReadReg(R12)  returns 0x00000018 (0000ms, 0167ms total)
T2D14 015:324 JLINK_ReadReg(R13 (SP))  returns 0x20000CA8 (0000ms, 0167ms total)
T2D14 015:324 JLINK_ReadReg(R14)  returns 0x08000AF5 (0000ms, 0167ms total)
T2D14 015:324 JLINK_ReadReg(R15 (PC))  returns 0x08000A5E (0000ms, 0167ms total)
T2D14 015:324 JLINK_ReadReg(XPSR)  returns 0x41000000 (0000ms, 0167ms total)
T2D14 015:324 JLINK_ReadReg(MSP)  returns 0x20000CA8 (0000ms, 0167ms total)
T2D14 015:324 JLINK_ReadReg(PSP)  returns 0x20001000 (0000ms, 0167ms total)
T2D14 015:324 JLINK_ReadReg(CFBP)  returns 0x00000000 (0000ms, 0167ms total)
T0B5C 015:326 JLINK_ReadMem (0x20000CAC, 0x0004 Bytes, ...) -- CPU_ReadMem(64 bytes @ 0x20000C80) -- Updating C cache (64 bytes @ 0x20000C80) -- Read from C cache (4 bytes @ 0x20000CAC) - Data: F5 0A 00 08  returns 0x00 (0001ms, 0168ms total)
T0B5C 015:327 JLINK_ReadMem (0x20000CA8, 0x0004 Bytes, ...) -- Read from C cache (4 bytes @ 0x20000CA8) - Data: 00 00 00 00  returns 0x00 (0000ms, 0168ms total)
T0B5C 015:327 JLINK_ReadMem (0x20000CB4, 0x0004 Bytes, ...) -- Read from C cache (4 bytes @ 0x20000CB4) - Data: 1D 0A 00 08  returns 0x00 (0000ms, 0168ms total)
T0B5C 015:327 JLINK_ReadMem (0x20000CB0, 0x0004 Bytes, ...) -- Read from C cache (4 bytes @ 0x20000CB0) - Data: 00 00 00 00  returns 0x00 (0000ms, 0168ms total)
T0B5C 015:327 JLINK_ReadMem (0x20000044, 0x0020 Bytes, ...) -- Read from C cache (32 bytes @ 0x20000044) - Data: 00 08 DC 11 11 11 01 00 C0 A8 01 6E FF FF FF 00 ...  returns 0x00 (0000ms, 0168ms total)
T0B5C 015:327 JLINK_ReadMemU32(0xE0001004, 0x0001 Items, ...) - Data: 9E 13 04 00  returns 0x01 (0000ms, 0168ms total)
T0B5C 015:335 JLINK_ReadMem (0x08000A58, 0x003C Bytes, ...) -- Read from C cache (60 bytes @ 0x08000A58) - Data: 10 BD 10 B5 04 46 06 22 21 46 4F F4 10 60 00 F0 ...  returns 0x00 (0000ms, 0168ms total)
T2D14 015:913 JLINK_Step() -- Read from C cache (2 bytes @ 0x08000A5E) -- Simulated  returns 0x00 (0000ms, 0168ms total)
T2D14 015:913 JLINK_ReadReg(R15 (PC))  returns 0x08000A60 (0000ms, 0168ms total)
T2D14 015:913 JLINK_ReadReg(XPSR)  returns 0x01000000 (0000ms, 0168ms total)
T2D14 015:913 JLINK_Step() -- Read from C cache (2 bytes @ 0x08000A60) -- Simulated  returns 0x00 (0000ms, 0168ms total)
T2D14 015:913 JLINK_ReadReg(R15 (PC))  returns 0x08000A62 (0000ms, 0168ms total)
T2D14 015:913 JLINK_ReadReg(XPSR)  returns 0x01000000 (0000ms, 0168ms total)
T2D14 015:913 JLINK_Step() -- Read from C cache (2 bytes @ 0x08000A62) -- Read from C cache (2 bytes @ 0x08000A64) -- Simulated  returns 0x00 (0000ms, 0168ms total)
T2D14 015:913 JLINK_ReadReg(R15 (PC))  returns 0x08000A66 (0000ms, 0168ms total)
T2D14 015:913 JLINK_ReadReg(XPSR)  returns 0x01000000 (0000ms, 0168ms total)
T2D14 015:913 JLINK_Step() -- Read from C cache (2 bytes @ 0x08000A66) -- Read from C cache (2 bytes @ 0x08000A68) -- Simulated  returns 0x00 (0000ms, 0168ms total)
T2D14 015:913 JLINK_ReadReg(R15 (PC))  returns 0x08000CCE (0000ms, 0168ms total)
T2D14 015:913 JLINK_ReadReg(XPSR)  returns 0x01000000 (0000ms, 0168ms total)
T2D14 015:913 JLINK_ReadReg(R0)  returns 0x00000900 (0000ms, 0168ms total)
T2D14 015:913 JLINK_ReadReg(R1)  returns 0x20000044 (0000ms, 0168ms total)
T2D14 015:913 JLINK_ReadReg(R2)  returns 0x00000006 (0000ms, 0168ms total)
T2D14 015:913 JLINK_ReadReg(R3)  returns 0x00000002 (0000ms, 0168ms total)
T2D14 015:913 JLINK_ReadReg(R4)  returns 0x20000044 (0000ms, 0168ms total)
T2D14 015:913 JLINK_ReadReg(R5)  returns 0x20000658 (0001ms, 0169ms total)
T2D14 015:914 JLINK_ReadReg(R6)  returns 0x00000000 (0000ms, 0169ms total)
T2D14 015:914 JLINK_ReadReg(R7)  returns 0x00000000 (0000ms, 0169ms total)
T2D14 015:914 JLINK_ReadReg(R8)  returns 0x00000000 (0000ms, 0169ms total)
T2D14 015:914 JLINK_ReadReg(R9)  returns 0x20000160 (0000ms, 0169ms total)
T2D14 015:914 JLINK_ReadReg(R10)  returns 0x08000D38 (0000ms, 0169ms total)
T2D14 015:914 JLINK_ReadReg(R11)  returns 0x00000000 (0000ms, 0169ms total)
T2D14 015:914 JLINK_ReadReg(R12)  returns 0x00000018 (0000ms, 0169ms total)
T2D14 015:914 JLINK_ReadReg(R13 (SP))  returns 0x20000CA8 (0000ms, 0169ms total)
T2D14 015:914 JLINK_ReadReg(R14)  returns 0x08000A6B (0000ms, 0169ms total)
T2D14 015:914 JLINK_ReadReg(R15 (PC))  returns 0x08000CCE (0000ms, 0169ms total)
T2D14 015:914 JLINK_ReadReg(XPSR)  returns 0x01000000 (0000ms, 0169ms total)
T2D14 015:914 JLINK_ReadReg(MSP)  returns 0x20000CA8 (0000ms, 0169ms total)
T2D14 015:914 JLINK_ReadReg(PSP)  returns 0x20001000 (0000ms, 0169ms total)
T2D14 015:914 JLINK_ReadReg(CFBP)  returns 0x00000000 (0000ms, 0169ms total)
T0B5C 015:914 JLINK_ReadMem (0x20000CAC, 0x0004 Bytes, ...) -- Read from C cache (4 bytes @ 0x20000CAC) - Data: F5 0A 00 08  returns 0x00 (0000ms, 0169ms total)
T0B5C 015:914 JLINK_ReadMem (0x20000CA8, 0x0004 Bytes, ...) -- Read from C cache (4 bytes @ 0x20000CA8) - Data: 00 00 00 00  returns 0x00 (0000ms, 0169ms total)
T0B5C 015:914 JLINK_ReadMem (0x20000CB4, 0x0004 Bytes, ...) -- Read from C cache (4 bytes @ 0x20000CB4) - Data: 1D 0A 00 08  returns 0x00 (0001ms, 0170ms total)
T0B5C 015:915 JLINK_ReadMem (0x20000CB0, 0x0004 Bytes, ...) -- Read from C cache (4 bytes @ 0x20000CB0) - Data: 00 00 00 00  returns 0x00 (0000ms, 0170ms total)
T0B5C 015:915 JLINK_ReadMem (0x20000044, 0x0020 Bytes, ...) -- Read from C cache (32 bytes @ 0x20000044) - Data: 00 08 DC 11 11 11 01 00 C0 A8 01 6E FF FF FF 00 ...  returns 0x00 (0000ms, 0170ms total)
T0B5C 015:921 JLINK_ReadMemU32(0xE0001004, 0x0001 Items, ...) - Data: A2 13 04 00  returns 0x01 (0000ms, 0170ms total)
T0B5C 015:927 JLINK_ReadMem (0x08000CCA, 0x0002 Bytes, ...) -- CPU_ReadMem(64 bytes @ 0x08000CC0) -- Updating C cache (64 bytes @ 0x08000CC0) -- Read from C cache (2 bytes @ 0x08000CCA) - Data: BD E8  returns 0x00 (0001ms, 0171ms total)
T0B5C 015:928 JLINK_ReadMem (0x08000CCC, 0x003C Bytes, ...) -- CPU_ReadMem(64 bytes @ 0x08000D00) -- Updating C cache (64 bytes @ 0x08000D00) -- Read from C cache (60 bytes @ 0x08000CCC) - Data: F0 81 2D E9 F0 41 04 46 0F 46 15 46 00 26 FF F7 ...  returns 0x00 (0000ms, 0171ms total)
T2D14 017:896 JLINK_Step() -- Read from C cache (2 bytes @ 0x08000CCE) -- Read from C cache (2 bytes @ 0x08000CD0) -- Not simulated -- CPU_WriteMem(4 bytes @ 0xE0002008) -- CPU_WriteMem(4 bytes @ 0xE000200C) -- CPU_WriteMem(4 bytes @ 0xE0002010) -- CPU_WriteMem(4 bytes @ 0xE0002014) -- CPU_WriteMem(4 bytes @ 0xE0001004)  returns 0x00 (0003ms, 0174ms total)
T2D14 017:899 JLINK_ReadReg(R15 (PC))  returns 0x08000CD2 (0000ms, 0174ms total)
T2D14 017:899 JLINK_ReadReg(XPSR)  returns 0x01000000 (0000ms, 0174ms total)
T2D14 017:899 JLINK_Step() -- CPU_ReadMem(64 bytes @ 0x08000CC0) -- Updating C cache (64 bytes @ 0x08000CC0) -- Read from C cache (2 bytes @ 0x08000CD2) -- CPU_ReadMem(4 bytes @ 0xE0001004) -- Simulated  returns 0x00 (0001ms, 0175ms total)
T2D14 017:900 JLINK_ReadReg(R15 (PC))  returns 0x08000CD4 (0000ms, 0175ms total)
T2D14 017:900 JLINK_ReadReg(XPSR)  returns 0x01000000 (0000ms, 0175ms total)
T2D14 017:900 JLINK_Step() -- Read from C cache (2 bytes @ 0x08000CD4) -- Simulated  returns 0x00 (0000ms, 0175ms total)
T2D14 017:900 JLINK_ReadReg(R15 (PC))  returns 0x08000CD6 (0000ms, 0175ms total)
T2D14 017:900 JLINK_ReadReg(XPSR)  returns 0x01000000 (0000ms, 0175ms total)
T2D14 017:900 JLINK_Step() -- Read from C cache (2 bytes @ 0x08000CD6) -- Simulated  returns 0x00 (0000ms, 0175ms total)
T2D14 017:900 JLINK_ReadReg(R15 (PC))  returns 0x08000CD8 (0000ms, 0175ms total)
T2D14 017:900 JLINK_ReadReg(XPSR)  returns 0x01000000 (0000ms, 0175ms total)
T2D14 017:900 JLINK_ReadReg(R0)  returns 0x00000900 (0000ms, 0175ms total)
T2D14 017:900 JLINK_ReadReg(R1)  returns 0x20000044 (0000ms, 0175ms total)
T2D14 017:900 JLINK_ReadReg(R2)  returns 0x00000006 (0000ms, 0175ms total)
T2D14 017:900 JLINK_ReadReg(R3)  returns 0x00000002 (0000ms, 0175ms total)
T2D14 017:900 JLINK_ReadReg(R4)  returns 0x00000900 (0000ms, 0175ms total)
T2D14 017:900 JLINK_ReadReg(R5)  returns 0x00000006 (0000ms, 0175ms total)
T2D14 017:900 JLINK_ReadReg(R6)  returns 0x00000000 (0000ms, 0175ms total)
T2D14 017:900 JLINK_ReadReg(R7)  returns 0x20000044 (0000ms, 0175ms total)
T2D14 017:900 JLINK_ReadReg(R8)  returns 0x00000000 (0000ms, 0175ms total)
T2D14 017:900 JLINK_ReadReg(R9)  returns 0x20000160 (0000ms, 0175ms total)
T2D14 017:900 JLINK_ReadReg(R10)  returns 0x08000D38 (0000ms, 0175ms total)
T2D14 017:900 JLINK_ReadReg(R11)  returns 0x00000000 (0000ms, 0175ms total)
T2D14 017:900 JLINK_ReadReg(R12)  returns 0x00000018 (0000ms, 0175ms total)
T2D14 017:900 JLINK_ReadReg(R13 (SP))  returns 0x20000C90 (0000ms, 0175ms total)
T2D14 017:900 JLINK_ReadReg(R14)  returns 0x08000A6B (0000ms, 0175ms total)
T2D14 017:900 JLINK_ReadReg(R15 (PC))  returns 0x08000CD8 (0000ms, 0175ms total)
T2D14 017:900 JLINK_ReadReg(XPSR)  returns 0x01000000 (0000ms, 0175ms total)
T2D14 017:900 JLINK_ReadReg(MSP)  returns 0x20000C90 (0000ms, 0175ms total)
T2D14 017:900 JLINK_ReadReg(PSP)  returns 0x20001000 (0000ms, 0175ms total)
T2D14 017:900 JLINK_ReadReg(CFBP)  returns 0x00000000 (0000ms, 0175ms total)
T0B5C 017:900 JLINK_ReadMem (0x20000CA4, 0x0004 Bytes, ...) -- CPU_ReadMem(64 bytes @ 0x20000C80) -- Updating C cache (64 bytes @ 0x20000C80) -- Read from C cache (4 bytes @ 0x20000CA4) - Data: 6B 0A 00 08  returns 0x00 (0001ms, 0176ms total)
T0B5C 017:901 JLINK_ReadMem (0x20000C90, 0x0004 Bytes, ...) -- Read from C cache (4 bytes @ 0x20000C90) - Data: 44 00 00 20  returns 0x00 (0000ms, 0176ms total)
T0B5C 017:901 JLINK_ReadMem (0x20000C94, 0x0004 Bytes, ...) -- Read from C cache (4 bytes @ 0x20000C94) - Data: 58 06 00 20  returns 0x00 (0000ms, 0176ms total)
T0B5C 017:901 JLINK_ReadMem (0x20000C98, 0x0004 Bytes, ...) -- Read from C cache (4 bytes @ 0x20000C98) - Data: 00 00 00 00  returns 0x00 (0000ms, 0176ms total)
T0B5C 017:901 JLINK_ReadMem (0x20000C9C, 0x0004 Bytes, ...) -- Read from C cache (4 bytes @ 0x20000C9C) - Data: 00 00 00 00  returns 0x00 (0000ms, 0176ms total)
T0B5C 017:901 JLINK_ReadMem (0x20000CA0, 0x0004 Bytes, ...) -- Read from C cache (4 bytes @ 0x20000CA0) - Data: 00 00 00 00  returns 0x00 (0000ms, 0176ms total)
T0B5C 017:901 JLINK_ReadMem (0x20000CAC, 0x0004 Bytes, ...) -- Read from C cache (4 bytes @ 0x20000CAC) - Data: F5 0A 00 08  returns 0x00 (0000ms, 0176ms total)
T0B5C 017:901 JLINK_ReadMem (0x20000CA8, 0x0004 Bytes, ...) -- Read from C cache (4 bytes @ 0x20000CA8) - Data: 00 00 00 00  returns 0x00 (0000ms, 0176ms total)
T0B5C 017:901 JLINK_ReadMem (0x20000CB4, 0x0004 Bytes, ...) -- Read from C cache (4 bytes @ 0x20000CB4) - Data: 1D 0A 00 08  returns 0x00 (0000ms, 0176ms total)
T0B5C 017:901 JLINK_ReadMem (0x20000CB0, 0x0004 Bytes, ...) -- Read from C cache (4 bytes @ 0x20000CB0) - Data: 00 00 00 00  returns 0x00 (0000ms, 0176ms total)
T0B5C 017:901 JLINK_ReadMem (0x20000044, 0x0020 Bytes, ...) -- CPU_ReadMem(64 bytes @ 0x20000040) -- Updating C cache (64 bytes @ 0x20000040) -- Read from C cache (32 bytes @ 0x20000044) - Data: 00 08 DC 11 11 11 01 00 C0 A8 01 6E FF FF FF 00 ...  returns 0x00 (0000ms, 0176ms total)
T0B5C 017:901 JLINK_ReadMemU32(0xE0001004, 0x0001 Items, ...) - Data: AC 13 04 00  returns 0x01 (0000ms, 0176ms total)
T0B5C 017:904 JLINK_ReadMem (0x08000CD8, 0x003C Bytes, ...) -- CPU_ReadMem(64 bytes @ 0x08000D00) -- Updating C cache (64 bytes @ 0x08000D00) -- Read from C cache (60 bytes @ 0x08000CD8) - Data: 00 26 FF F7 68 FB C4 F3 07 40 FF F7 6E FB C4 F3 ...  returns 0x00 (0001ms, 0177ms total)
T0B5C 017:912 JLINK_ReadMem (0x08000CCA, 0x0002 Bytes, ...) -- Read from C cache (2 bytes @ 0x08000CCA) - Data: BD E8  returns 0x00 (0000ms, 0177ms total)
T0B5C 017:912 JLINK_ReadMem (0x08000CCC, 0x003C Bytes, ...) -- Read from C cache (60 bytes @ 0x08000CCC) - Data: F0 81 2D E9 F0 41 04 46 0F 46 15 46 00 26 FF F7 ...  returns 0x00 (0000ms, 0177ms total)
T2D14 018:386 JLINK_Step() -- Read from C cache (2 bytes @ 0x08000CD8) -- Simulated  returns 0x00 (0000ms, 0177ms total)
T2D14 018:386 JLINK_ReadReg(R15 (PC))  returns 0x08000CDA (0000ms, 0177ms total)
T2D14 018:386 JLINK_ReadReg(XPSR)  returns 0x41000000 (0000ms, 0177ms total)
T2D14 018:386 JLINK_ReadReg(R0)  returns 0x00000900 (0000ms, 0177ms total)
T2D14 018:386 JLINK_ReadReg(R1)  returns 0x20000044 (0000ms, 0177ms total)
T2D14 018:386 JLINK_ReadReg(R2)  returns 0x00000006 (0000ms, 0177ms total)
T2D14 018:386 JLINK_ReadReg(R3)  returns 0x00000002 (0000ms, 0177ms total)
T2D14 018:386 JLINK_ReadReg(R4)  returns 0x00000900 (0000ms, 0177ms total)
T2D14 018:386 JLINK_ReadReg(R5)  returns 0x00000006 (0000ms, 0177ms total)
T2D14 018:386 JLINK_ReadReg(R6)  returns 0x00000000 (0001ms, 0178ms total)
T2D14 018:387 JLINK_ReadReg(R7)  returns 0x20000044 (0000ms, 0178ms total)
T2D14 018:387 JLINK_ReadReg(R8)  returns 0x00000000 (0000ms, 0178ms total)
T2D14 018:387 JLINK_ReadReg(R9)  returns 0x20000160 (0000ms, 0178ms total)
T2D14 018:387 JLINK_ReadReg(R10)  returns 0x08000D38 (0000ms, 0178ms total)
T2D14 018:387 JLINK_ReadReg(R11)  returns 0x00000000 (0000ms, 0178ms total)
T2D14 018:387 JLINK_ReadReg(R12)  returns 0x00000018 (0000ms, 0178ms total)
T2D14 018:387 JLINK_ReadReg(R13 (SP))  returns 0x20000C90 (0000ms, 0178ms total)
T2D14 018:387 JLINK_ReadReg(R14)  returns 0x08000A6B (0000ms, 0178ms total)
T2D14 018:387 JLINK_ReadReg(R15 (PC))  returns 0x08000CDA (0000ms, 0178ms total)
T2D14 018:387 JLINK_ReadReg(XPSR)  returns 0x41000000 (0000ms, 0178ms total)
T2D14 018:387 JLINK_ReadReg(MSP)  returns 0x20000C90 (0000ms, 0178ms total)
T2D14 018:387 JLINK_ReadReg(PSP)  returns 0x20001000 (0000ms, 0178ms total)
T2D14 018:387 JLINK_ReadReg(CFBP)  returns 0x00000000 (0000ms, 0178ms total)
T0B5C 018:390 JLINK_ReadMem (0x20000CA4, 0x0004 Bytes, ...) -- Read from C cache (4 bytes @ 0x20000CA4) - Data: 6B 0A 00 08  returns 0x00 (0000ms, 0178ms total)
T0B5C 018:390 JLINK_ReadMem (0x20000C90, 0x0004 Bytes, ...) -- Read from C cache (4 bytes @ 0x20000C90) - Data: 44 00 00 20  returns 0x00 (0000ms, 0178ms total)
T0B5C 018:390 JLINK_ReadMem (0x20000C94, 0x0004 Bytes, ...) -- Read from C cache (4 bytes @ 0x20000C94) - Data: 58 06 00 20  returns 0x00 (0000ms, 0178ms total)
T0B5C 018:390 JLINK_ReadMem (0x20000C98, 0x0004 Bytes, ...) -- Read from C cache (4 bytes @ 0x20000C98) - Data: 00 00 00 00  returns 0x00 (0000ms, 0178ms total)
T0B5C 018:390 JLINK_ReadMem (0x20000C9C, 0x0004 Bytes, ...) -- Read from C cache (4 bytes @ 0x20000C9C) - Data: 00 00 00 00  returns 0x00 (0000ms, 0178ms total)
T0B5C 018:390 JLINK_ReadMem (0x20000CA0, 0x0004 Bytes, ...) -- Read from C cache (4 bytes @ 0x20000CA0) - Data: 00 00 00 00  returns 0x00 (0000ms, 0178ms total)
T0B5C 018:390 JLINK_ReadMem (0x20000CAC, 0x0004 Bytes, ...) -- Read from C cache (4 bytes @ 0x20000CAC) - Data: F5 0A 00 08  returns 0x00 (0000ms, 0178ms total)
T0B5C 018:390 JLINK_ReadMem (0x20000CA8, 0x0004 Bytes, ...) -- Read from C cache (4 bytes @ 0x20000CA8) - Data: 00 00 00 00  returns 0x00 (0000ms, 0178ms total)
T0B5C 018:390 JLINK_ReadMem (0x20000CB4, 0x0004 Bytes, ...) -- Read from C cache (4 bytes @ 0x20000CB4) - Data: 1D 0A 00 08  returns 0x00 (0000ms, 0178ms total)
T0B5C 018:390 JLINK_ReadMem (0x20000CB0, 0x0004 Bytes, ...) -- Read from C cache (4 bytes @ 0x20000CB0) - Data: 00 00 00 00  returns 0x00 (0000ms, 0178ms total)
T0B5C 018:390 JLINK_ReadMem (0x20000044, 0x0020 Bytes, ...) -- Read from C cache (32 bytes @ 0x20000044) - Data: 00 08 DC 11 11 11 01 00 C0 A8 01 6E FF FF FF 00 ...  returns 0x00 (0000ms, 0178ms total)
T0B5C 018:390 JLINK_ReadMemU32(0xE0001004, 0x0001 Items, ...) - Data: AD 13 04 00  returns 0x01 (0000ms, 0178ms total)
T0B5C 018:400 JLINK_ReadMem (0x08000CD8, 0x003C Bytes, ...) -- Read from C cache (60 bytes @ 0x08000CD8) - Data: 00 26 FF F7 68 FB C4 F3 07 40 FF F7 6E FB C4 F3 ...  returns 0x00 (0000ms, 0178ms total)
T2D14 019:511 JLINK_SetBPEx(Addr = 0x08000CDE, Type = 0xFFFFFFF2)  returns 0x00000010 (0000ms, 0178ms total)
T2D14 019:511 JLINK_SetBPEx(Addr = 0x08000AEE, Type = 0xFFFFFFF2)  returns 0x00000011 (0000ms, 0178ms total)
T2D14 019:511 JLINK_SetBPEx(Addr = 0x080001CC, Type = 0xFFFFFFF2)  returns 0x00000012 (0000ms, 0178ms total)
T2D14 019:511 JLINK_SetBPEx(Addr = 0x08000A1C, Type = 0xFFFFFFF2)  returns 0x00000013 (0000ms, 0178ms total)
T2D14 019:511 JLINK_SetBPEx(Addr = 0x08000B34, Type = 0xFFFFFFF2)  returns 0x00000014 (0000ms, 0178ms total)
T2D14 019:511 JLINK_Go() -- CPU_ReadMem(4 bytes @ 0xE0001000) -- CPU_WriteMem(4 bytes @ 0xE0002008) -- CPU_WriteMem(4 bytes @ 0xE000200C) -- CPU_WriteMem(4 bytes @ 0xE0002010) -- CPU_WriteMem(4 bytes @ 0xE0002014) -- CPU_WriteMem(4 bytes @ 0xE0002018) -- CPU_WriteMem(4 bytes @ 0xE0001004) (0002ms, 0180ms total)
T2D14 019:614 JLINK_IsHalted()  returns TRUE (0001ms, 0181ms total)
T2D14 019:615 JLINK_Halt()  returns 0x00 (0000ms, 0180ms total)
T2D14 019:615 JLINK_IsHalted()  returns TRUE (0000ms, 0180ms total)
T2D14 019:615 JLINK_IsHalted()  returns TRUE (0000ms, 0180ms total)
T2D14 019:615 JLINK_IsHalted()  returns TRUE (0000ms, 0180ms total)
T2D14 019:615 JLINK_ReadReg(R15 (PC))  returns 0x08000CDE (0000ms, 0180ms total)
T2D14 019:615 JLINK_ReadReg(XPSR)  returns 0x41000000 (0000ms, 0180ms total)
T2D14 019:615 JLINK_ClrBPEx(BPHandle = 0x00000010)  returns 0x00 (0000ms, 0180ms total)
T2D14 019:615 JLINK_ClrBPEx(BPHandle = 0x00000011)  returns 0x00 (0000ms, 0180ms total)
T2D14 019:615 JLINK_ClrBPEx(BPHandle = 0x00000012)  returns 0x00 (0000ms, 0180ms total)
T2D14 019:615 JLINK_ClrBPEx(BPHandle = 0x00000013)  returns 0x00 (0000ms, 0180ms total)
T2D14 019:615 JLINK_ClrBPEx(BPHandle = 0x00000014)  returns 0x00 (0000ms, 0180ms total)
T2D14 019:615 JLINK_ReadMemU32(0xE000ED30, 0x0001 Items, ...) -- CPU_ReadMem(4 bytes @ 0xE000ED30) - Data: 02 00 00 00  returns 0x01 (0001ms, 0181ms total)
T2D14 019:616 JLINK_ReadMemU32(0xE0001028, 0x0001 Items, ...) -- CPU_ReadMem(4 bytes @ 0xE0001028) - Data: 00 00 00 00  returns 0x01 (0000ms, 0181ms total)
T2D14 019:616 JLINK_ReadMemU32(0xE0001038, 0x0001 Items, ...) -- CPU_ReadMem(4 bytes @ 0xE0001038) - Data: 00 02 00 00  returns 0x01 (0000ms, 0181ms total)
T2D14 019:616 JLINK_ReadMemU32(0xE0001048, 0x0001 Items, ...) -- CPU_ReadMem(4 bytes @ 0xE0001048) - Data: 00 00 00 00  returns 0x01 (0000ms, 0181ms total)
T2D14 019:616 JLINK_ReadMemU32(0xE0001058, 0x0001 Items, ...) -- CPU_ReadMem(4 bytes @ 0xE0001058) - Data: 00 00 00 00  returns 0x01 (0001ms, 0182ms total)
T2D14 019:617 JLINK_ReadReg(R0)  returns 0x40010C00 (0000ms, 0182ms total)
T2D14 019:617 JLINK_ReadReg(R1)  returns 0x00001000 (0000ms, 0182ms total)
T2D14 019:617 JLINK_ReadReg(R2)  returns 0x00000006 (0000ms, 0182ms total)
T2D14 019:617 JLINK_ReadReg(R3)  returns 0x00000002 (0000ms, 0182ms total)
T2D14 019:617 JLINK_ReadReg(R4)  returns 0x00000900 (0000ms, 0182ms total)
T2D14 019:617 JLINK_ReadReg(R5)  returns 0x00000006 (0000ms, 0182ms total)
T2D14 019:617 JLINK_ReadReg(R6)  returns 0x00000000 (0000ms, 0182ms total)
T2D14 019:617 JLINK_ReadReg(R7)  returns 0x20000044 (0000ms, 0182ms total)
T2D14 019:617 JLINK_ReadReg(R8)  returns 0x00000000 (0000ms, 0182ms total)
T2D14 019:617 JLINK_ReadReg(R9)  returns 0x20000160 (0000ms, 0182ms total)
T2D14 019:617 JLINK_ReadReg(R10)  returns 0x08000D38 (0000ms, 0182ms total)
T2D14 019:617 JLINK_ReadReg(R11)  returns 0x00000000 (0000ms, 0182ms total)
T2D14 019:617 JLINK_ReadReg(R12)  returns 0x00000018 (0000ms, 0182ms total)
T2D14 019:617 JLINK_ReadReg(R13 (SP))  returns 0x20000C90 (0000ms, 0182ms total)
T2D14 019:617 JLINK_ReadReg(R14)  returns 0x08000811 (0000ms, 0182ms total)
T2D14 019:617 JLINK_ReadReg(R15 (PC))  returns 0x08000CDE (0000ms, 0182ms total)
